time	V(outa)	V(outb)
0.000000000000000e+00	2.289965e+01	8.241651e-04
1.999999992008394e-12	2.289965e+01	8.241651e-04
3.999999984016789e-12	2.289965e+01	8.241651e-04
7.999999968033578e-12	2.289965e+01	8.241651e-04
1.599999993606716e-11	2.289965e+01	8.241651e-04
3.199999987213431e-11	2.289965e+01	8.241651e-04
6.399999974426862e-11	2.289965e+01	8.241651e-04
1.279999994885372e-10	2.289965e+01	8.241651e-04
2.559999989770745e-10	2.289965e+01	8.241651e-04
5.119999979541490e-10	2.289965e+01	8.241651e-04
1.023999995908298e-09	2.289965e+01	8.241651e-04
2.047999991816596e-09	2.289965e+01	8.241651e-04
4.095999983633192e-09	2.289965e+01	8.241651e-04
1.638399993453277e-08	2.289965e+01	8.241651e-04
3.276799986906553e-08	2.289965e+01	8.241651e-04
6.553599973813107e-08	2.289965e+01	8.241651e-04
7.372799970539745e-08	2.289965e+01	8.241651e-04
7.381975681591718e-08	2.289965e+01	8.241651e-04
7.400327103695664e-08	2.289965e+01	8.241651e-04
7.437029947903556e-08	2.289965e+01	8.241651e-04
7.458830496584280e-08	2.289965e+01	8.241651e-04
7.473809689970379e-08	2.289965e+01	8.241651e-04
7.483848052754087e-08	2.289965e+01	8.241651e-04
7.490603022070625e-08	2.289965e+01	8.241651e-04
7.495145442599860e-08	2.289965e+01	8.241651e-04
7.498200365235296e-08	2.289965e+01	8.241651e-04
7.500306691953218e-08	2.289965e+01	8.241651e-04
7.501169522220308e-08	2.289965e+01	8.241651e-04
7.501994303051756e-08	2.289965e+01	8.241651e-04
7.503339839972097e-08	2.289965e+01	8.241651e-04
7.505527502004347e-08	2.289965e+01	8.241651e-04
7.509902826068846e-08	2.289965e+01	8.241651e-04
7.518653474197844e-08	2.289965e+01	8.241651e-04
7.536154770455840e-08	2.289965e+01	8.241651e-04
7.571157362971832e-08	2.289965e+01	8.241651e-04
7.641162548003815e-08	2.289965e+01	8.241651e-04
7.781172918067781e-08	2.289965e+01	8.241651e-04
8.061193658195715e-08	2.289965e+01	8.241651e-04
8.621235138451582e-08	2.289965e+01	8.241651e-04
9.116944957730280e-08	2.289964e+01	8.241651e-04
9.794742896061947e-08	2.289963e+01	8.241651e-04
9.836885061994169e-08	2.289963e+01	8.241651e-04
9.879021128857459e-08	2.289963e+01	8.241651e-04
9.939210769265254e-08	2.289962e+01	8.241651e-04
1.002766049692217e-07	2.289962e+01	8.241651e-04
1.017934003397894e-07	2.289961e+01	8.241651e-04
1.044946050641408e-07	2.289960e+01	8.241651e-04
1.207018334102494e-07	2.289949e+01	8.241651e-04
1.423114712050607e-07	2.289921e+01	8.241651e-04
1.855307467946835e-07	2.287960e+01	8.241651e-04
2.719692979739290e-07	1.741946e+00	8.241651e-04
3.719692979739290e-07	1.521928e-03	8.241651e-04
4.314264476484825e-07	8.248829e-04	8.241651e-04
4.932320290052313e-07	8.241651e-04	8.241651e-04
5.011200736071111e-07	8.241651e-04	8.241651e-04
5.417471368740070e-07	8.241651e-04	8.241651e-04
5.823742001409027e-07	8.241651e-04	8.241651e-04
6.230012634077985e-07	8.241651e-04	8.241651e-04
6.636283266746943e-07	8.241651e-04	8.241651e-04
7.042553899415901e-07	8.241651e-04	8.241651e-04
7.448824532084860e-07	8.241651e-04	8.241651e-04
7.855095164753816e-07	8.241651e-04	8.241651e-04
9.855095164753817e-07	8.241651e-04	8.241651e-04
1.185509516475382e-06	8.241651e-04	8.241651e-04
1.385509516475382e-06	8.241651e-04	8.241651e-04
1.585509516475382e-06	8.241651e-04	8.241651e-04
1.785509516475383e-06	8.241651e-04	8.241651e-04
1.985509516475383e-06	8.241651e-04	8.241651e-04
2.185509516475382e-06	8.241651e-04	8.241651e-04
2.385509516475382e-06	8.241651e-04	8.241651e-04
2.585509516475382e-06	8.241651e-04	8.241651e-04
2.785509516475382e-06	8.241651e-04	8.241651e-04
2.985509516475381e-06	8.241651e-04	8.241651e-04
3.185509516475381e-06	8.241651e-04	8.241651e-04
3.385509516475381e-06	8.241651e-04	8.241651e-04
3.585509516475381e-06	8.241651e-04	8.241651e-04
3.785509516475381e-06	8.241651e-04	8.241651e-04
3.985509516475381e-06	8.241651e-04	8.241651e-04
4.185509516475381e-06	8.241651e-04	8.241651e-04
4.385509516475380e-06	8.241651e-04	8.241651e-04
4.585509516475380e-06	8.241651e-04	8.241651e-04
4.685509516475380e-06	8.241651e-04	8.241651e-04
4.785509516475380e-06	8.241651e-04	8.241651e-04
4.798009516475380e-06	8.241651e-04	8.241651e-04
4.823009516475380e-06	8.241651e-04	8.241651e-04
4.829259516475380e-06	8.241651e-04	8.241651e-04
4.841759516475380e-06	8.241651e-04	8.241651e-04
4.844782465131481e-06	8.241651e-04	8.241651e-04
4.847635765122795e-06	8.241651e-04	8.241651e-04
4.851776994291486e-06	8.241651e-04	8.241651e-04
4.857162956807770e-06	8.241651e-04	8.241724e-04
4.867934881840338e-06	8.241651e-04	8.243149e-04
4.889478731905474e-06	8.241651e-04	8.254061e-04
4.932566432035746e-06	8.241651e-04	1.176893e-03
5.018741832296289e-06	8.241651e-04	4.441837e-01
5.118741832296289e-06	8.241651e-04	2.287729e+01
5.201038459422669e-06	8.241651e-04	2.289939e+01
6.380661296330810e-06	8.241651e-04	2.289950e+01
7.560284133238952e-06	8.241651e-04	2.289959e+01
8.739906970147093e-06	8.241651e-04	2.289966e+01
9.919529807055233e-06	8.241651e-04	2.289970e+01
1.109915264396338e-05	8.241651e-04	2.289971e+01
1.227877548087152e-05	8.241651e-04	2.289969e+01
1.345839831777966e-05	8.241651e-04	2.289965e+01
1.348339831777966e-05	8.241651e-04	2.289965e+01
1.348964831777966e-05	8.241651e-04	2.289965e+01
1.348971832168591e-05	8.241651e-04	2.289965e+01
1.348985832949841e-05	8.241651e-04	2.289965e+01
1.349013834512341e-05	8.241651e-04	2.289965e+01
1.349069837637341e-05	8.241651e-04	2.289965e+01
1.349086857827140e-05	8.241651e-04	2.289965e+01
1.349094408456225e-05	8.241651e-04	2.289965e+01
1.349101631838178e-05	8.241651e-04	2.289965e+01
1.349108575083364e-05	8.241651e-04	2.289965e+01
1.349120978066641e-05	8.241651e-04	2.289965e+01
1.349141592534944e-05	8.241651e-04	2.289965e+01
1.349182821471550e-05	8.241651e-04	2.289965e+01
1.349265279344762e-05	8.241651e-04	2.289965e+01
1.349430195091185e-05	8.241651e-04	2.289965e+01
1.349760026584032e-05	8.241651e-04	2.289965e+01
1.350419689569725e-05	8.241651e-04	2.289965e+01
1.350845702761321e-05	8.241651e-04	2.289964e+01
1.351112606400289e-05	8.241651e-04	2.289964e+01
1.351258771522288e-05	8.241651e-04	2.289963e+01
1.351349745950096e-05	8.241651e-04	2.289963e+01
1.351401630209637e-05	8.241651e-04	2.289963e+01
1.351447067697982e-05	8.241651e-04	2.289963e+01
1.351493033281332e-05	8.241651e-04	2.289963e+01
1.351545885424148e-05	8.241651e-04	2.289962e+01
1.351619678541410e-05	8.241651e-04	2.289962e+01
1.351732331863665e-05	8.241651e-04	2.289962e+01
1.351922643473352e-05	8.241651e-04	2.289961e+01
1.352277521949732e-05	8.241651e-04	2.289959e+01
1.352987278902494e-05	8.241651e-04	2.289954e+01
1.354406792808016e-05	8.241651e-04	2.289935e+01
1.357245820619061e-05	8.241651e-04	2.289774e+01
1.362923876241151e-05	8.241651e-04	2.258840e+01
1.372923876241151e-05	8.241651e-04	2.015599e-02
1.382923876241151e-05	8.241651e-04	8.297288e-04
1.393069468267088e-05	8.241651e-04	8.241651e-04
1.393907609299206e-05	8.241651e-04	8.241651e-04
1.397656783801008e-05	8.241651e-04	8.241651e-04
1.417513645574757e-05	8.241651e-04	8.241651e-04
1.437513645574757e-05	8.241651e-04	8.241651e-04
1.457513645574757e-05	8.241651e-04	8.241651e-04
1.477513645574757e-05	8.241651e-04	8.241651e-04
1.497513645574757e-05	8.241651e-04	8.241651e-04
1.517513645574757e-05	8.241651e-04	8.241651e-04
1.537513645574757e-05	8.241651e-04	8.241651e-04
1.557513645574757e-05	8.241651e-04	8.241651e-04
1.577513645574757e-05	8.241651e-04	8.241651e-04
1.597513645574757e-05	8.241651e-04	8.241651e-04
1.617513645574757e-05	8.241651e-04	8.241651e-04
1.637513645574756e-05	8.241651e-04	8.241651e-04
1.657513645574756e-05	8.241651e-04	8.241651e-04
1.677513645574756e-05	8.241651e-04	8.241651e-04
1.697513645574756e-05	8.241651e-04	8.241651e-04
1.717513645574756e-05	8.241651e-04	8.241651e-04
1.727513645574756e-05	8.241651e-04	8.241651e-04
1.737513645574756e-05	8.241651e-04	8.241651e-04
1.738763645574756e-05	8.241651e-04	8.241651e-04
1.741263645574756e-05	8.241651e-04	8.241651e-04
1.741888645574756e-05	8.241651e-04	8.241651e-04
1.743138645574756e-05	8.241651e-04	8.241651e-04
1.743440940440366e-05	8.241651e-04	8.241651e-04
1.743726270439497e-05	8.241651e-04	8.241651e-04
1.744140393356367e-05	8.241651e-04	8.241651e-04
1.744678989607995e-05	8.241724e-04	8.241651e-04
1.745756182111252e-05	8.243149e-04	8.241651e-04
1.747910567117765e-05	8.254061e-04	8.241651e-04
1.752219337130792e-05	1.176893e-03	8.241651e-04
1.760836877156847e-05	4.441837e-01	8.241651e-04
1.770836877156847e-05	2.287729e+01	8.241651e-04
1.779066539869485e-05	2.289939e+01	8.241651e-04
1.897028823560298e-05	2.289950e+01	8.241651e-04
2.014991107251110e-05	2.289959e+01	8.241651e-04
2.132953390941923e-05	2.289966e+01	8.241651e-04
2.250915674632735e-05	2.289970e+01	8.241651e-04
2.368877958323548e-05	2.289971e+01	8.241651e-04
2.486840242014360e-05	2.289969e+01	8.241651e-04
2.604802525705172e-05	2.289965e+01	8.241651e-04
2.607302525705173e-05	2.289965e+01	8.241651e-04
2.607927525705173e-05	2.289965e+01	8.241651e-04
2.607934526095798e-05	2.289965e+01	8.241651e-04
2.607948526877047e-05	2.289965e+01	8.241651e-04
2.607976528439547e-05	2.289965e+01	8.241651e-04
2.608032531564547e-05	2.289965e+01	8.241651e-04
2.608049551754346e-05	2.289965e+01	8.241651e-04
2.608057102383432e-05	2.289965e+01	8.241651e-04
2.608064325765384e-05	2.289965e+01	8.241651e-04
2.608071269010571e-05	2.289965e+01	8.241651e-04
2.608083671993848e-05	2.289965e+01	8.241651e-04
2.608104286462151e-05	2.289965e+01	8.241651e-04
2.608145515398757e-05	2.289965e+01	8.241651e-04
2.608227973271968e-05	2.289965e+01	8.241651e-04
2.608392889018392e-05	2.289965e+01	8.241651e-04
2.608722720511239e-05	2.289965e+01	8.241651e-04
2.609382383496932e-05	2.289965e+01	8.241651e-04
2.609808396688528e-05	2.289964e+01	8.241651e-04
2.610075300327496e-05	2.289964e+01	8.241651e-04
2.610221465449494e-05	2.289963e+01	8.241651e-04
2.610312439877302e-05	2.289963e+01	8.241651e-04
2.610364324136843e-05	2.289963e+01	8.241651e-04
2.610409761625188e-05	2.289963e+01	8.241651e-04
2.610455727208538e-05	2.289963e+01	8.241651e-04
2.610508579351354e-05	2.289962e+01	8.241651e-04
2.610582372468616e-05	2.289962e+01	8.241651e-04
2.610695025790871e-05	2.289962e+01	8.241651e-04
2.610885337400558e-05	2.289961e+01	8.241651e-04
2.611240215876938e-05	2.289959e+01	8.241651e-04
2.611949972829700e-05	2.289954e+01	8.241651e-04
2.613369486735222e-05	2.289935e+01	8.241651e-04
2.616208514546267e-05	2.289774e+01	8.241651e-04
2.621886570168357e-05	2.258840e+01	8.241651e-04
2.631886570168357e-05	2.015599e-02	8.241651e-04
2.641886570168357e-05	8.297288e-04	8.241651e-04
2.652032162194294e-05	8.241651e-04	8.241651e-04
2.652870303226412e-05	8.241651e-04	8.241651e-04
2.656619477728215e-05	8.241651e-04	8.241651e-04
2.676476339501963e-05	8.241651e-04	8.241651e-04
2.696476339501962e-05	8.241651e-04	8.241651e-04
2.716476339501962e-05	8.241651e-04	8.241651e-04
2.736476339501962e-05	8.241651e-04	8.241651e-04
2.756476339501962e-05	8.241651e-04	8.241651e-04
2.776476339501962e-05	8.241651e-04	8.241651e-04
2.796476339501961e-05	8.241651e-04	8.241651e-04
2.816476339501961e-05	8.241651e-04	8.241651e-04
2.836476339501961e-05	8.241651e-04	8.241651e-04
2.856476339501961e-05	8.241651e-04	8.241651e-04
2.876476339501961e-05	8.241651e-04	8.241651e-04
2.896476339501960e-05	8.241651e-04	8.241651e-04
2.916476339501960e-05	8.241651e-04	8.241651e-04
2.936476339501960e-05	8.241651e-04	8.241651e-04
2.956476339501960e-05	8.241651e-04	8.241651e-04
2.976476339501960e-05	8.241651e-04	8.241651e-04
2.986476339501960e-05	8.241651e-04	8.241651e-04
2.996476339501960e-05	8.241651e-04	8.241651e-04
2.997726339501960e-05	8.241651e-04	8.241651e-04
3.000226339501960e-05	8.241651e-04	8.241651e-04
3.000851339501960e-05	8.241651e-04	8.241651e-04
3.002101339501960e-05	8.241651e-04	8.241651e-04
3.002403634367570e-05	8.241651e-04	8.241651e-04
3.002688964366701e-05	8.241651e-04	8.241651e-04
3.003103087283571e-05	8.241651e-04	8.241651e-04
3.003641683535199e-05	8.241651e-04	8.241724e-04
3.004718876038456e-05	8.241651e-04	8.243149e-04
3.006873261044969e-05	8.241651e-04	8.254061e-04
3.011182031057996e-05	8.241651e-04	1.176893e-03
3.019799571084051e-05	8.241651e-04	4.441837e-01
3.029799571084051e-05	8.241651e-04	2.287729e+01
3.038029233796689e-05	8.241651e-04	2.289939e+01
3.155991517487505e-05	8.241651e-04	2.289950e+01
3.273953801178322e-05	8.241651e-04	2.289959e+01
3.391916084869138e-05	8.241651e-04	2.289966e+01
3.509878368559955e-05	8.241651e-04	2.289970e+01
3.627840652250771e-05	8.241651e-04	2.289971e+01
3.745802935941588e-05	8.241651e-04	2.289969e+01
3.863765219632404e-05	8.241651e-04	2.289965e+01
3.866265219632404e-05	8.241651e-04	2.289965e+01
3.866890219632403e-05	8.241651e-04	2.289965e+01
3.866897220023028e-05	8.241651e-04	2.289965e+01
3.866911220804278e-05	8.241651e-04	2.289965e+01
3.866939222366778e-05	8.241651e-04	2.289965e+01
3.866995225491778e-05	8.241651e-04	2.289965e+01
3.867012245681577e-05	8.241651e-04	2.289965e+01
3.867019796310663e-05	8.241651e-04	2.289965e+01
3.867027019692615e-05	8.241651e-04	2.289965e+01
3.867033962937802e-05	8.241651e-04	2.289965e+01
3.867046365921078e-05	8.241651e-04	2.289965e+01
3.867066980389381e-05	8.241651e-04	2.289965e+01
3.867108209325987e-05	8.241651e-04	2.289965e+01
3.867190667199199e-05	8.241651e-04	2.289965e+01
3.867355582945623e-05	8.241651e-04	2.289965e+01
3.867685414438470e-05	8.241651e-04	2.289965e+01
3.868345077424163e-05	8.241651e-04	2.289965e+01
3.868771090615759e-05	8.241651e-04	2.289964e+01
3.869037994254727e-05	8.241651e-04	2.289964e+01
3.869184159376726e-05	8.241651e-04	2.289963e+01
3.869275133804534e-05	8.241651e-04	2.289963e+01
3.869327018064074e-05	8.241651e-04	2.289963e+01
3.869372455552419e-05	8.241651e-04	2.289963e+01
3.869418421135769e-05	8.241651e-04	2.289963e+01
3.869471273278586e-05	8.241651e-04	2.289962e+01
3.869545066395848e-05	8.241651e-04	2.289962e+01
3.869657719718103e-05	8.241651e-04	2.289962e+01
3.869848031327789e-05	8.241651e-04	2.289961e+01
3.870202909804170e-05	8.241651e-04	2.289959e+01
3.870912666756931e-05	8.241651e-04	2.289954e+01
3.872332180662454e-05	8.241651e-04	2.289935e+01
3.875171208473499e-05	8.241651e-04	2.289774e+01
3.880849264095589e-05	8.241651e-04	2.258840e+01
3.890849264095589e-05	8.241651e-04	2.015599e-02
3.900849264095589e-05	8.241651e-04	8.297288e-04
3.910994856121526e-05	8.241651e-04	8.241651e-04
3.911832997153644e-05	8.241651e-04	8.241651e-04
3.915582171655446e-05	8.241651e-04	8.241651e-04
3.935439033429194e-05	8.241651e-04	8.241651e-04
3.955439033429195e-05	8.241651e-04	8.241651e-04
3.975439033429195e-05	8.241651e-04	8.241651e-04
3.995439033429196e-05	8.241651e-04	8.241651e-04
4.015439033429196e-05	8.241651e-04	8.241651e-04
4.035439033429197e-05	8.241651e-04	8.241651e-04
4.055439033429197e-05	8.241651e-04	8.241651e-04
4.075439033429198e-05	8.241651e-04	8.241651e-04
4.095439033429198e-05	8.241651e-04	8.241651e-04
4.115439033429199e-05	8.241651e-04	8.241651e-04
4.135439033429199e-05	8.241651e-04	8.241651e-04
4.155439033429200e-05	8.241651e-04	8.241651e-04
4.175439033429200e-05	8.241651e-04	8.241651e-04
4.195439033429201e-05	8.241651e-04	8.241651e-04
4.215439033429201e-05	8.241651e-04	8.241651e-04
4.235439033429202e-05	8.241651e-04	8.241651e-04
4.245439033429202e-05	8.241651e-04	8.241651e-04
4.255439033429202e-05	8.241651e-04	8.241651e-04
4.256689033429202e-05	8.241651e-04	8.241651e-04
4.259189033429202e-05	8.241651e-04	8.241651e-04
4.259814033429202e-05	8.241651e-04	8.241651e-04
4.261064033429202e-05	8.241651e-04	8.241651e-04
4.261366328294812e-05	8.241651e-04	8.241651e-04
4.261651658293943e-05	8.241651e-04	8.241651e-04
4.262065781210812e-05	8.241651e-04	8.241651e-04
4.262604377462440e-05	8.241724e-04	8.241651e-04
4.263681569965697e-05	8.243149e-04	8.241651e-04
4.265835954972211e-05	8.254061e-04	8.241651e-04
4.270144724985238e-05	1.176893e-03	8.241651e-04
4.278762265011292e-05	4.441837e-01	8.241651e-04
4.288762265011292e-05	2.287729e+01	8.241651e-04
4.296991927723931e-05	2.289939e+01	8.241651e-04
4.414954211414747e-05	2.289950e+01	8.241651e-04
4.532916495105563e-05	2.289959e+01	8.241651e-04
4.650878778796380e-05	2.289966e+01	8.241651e-04
4.768841062487196e-05	2.289970e+01	8.241651e-04
4.886803346178012e-05	2.289971e+01	8.241651e-04
5.004765629868829e-05	2.289969e+01	8.241651e-04
5.122727913559645e-05	2.289965e+01	8.241651e-04
5.125227913559645e-05	2.289965e+01	8.241651e-04
5.125852913559645e-05	2.289965e+01	8.241651e-04
5.125859913950270e-05	2.289965e+01	8.241651e-04
5.125873914731520e-05	2.289965e+01	8.241651e-04
5.125901916294019e-05	2.289965e+01	8.241651e-04
5.125957919419019e-05	2.289965e+01	8.241651e-04
5.125974939608819e-05	2.289965e+01	8.241651e-04
5.125982490237904e-05	2.289965e+01	8.241651e-04
5.125989713619857e-05	2.289965e+01	8.241651e-04
5.125996656865043e-05	2.289965e+01	8.241651e-04
5.126009059848320e-05	2.289965e+01	8.241651e-04
5.126029674316623e-05	2.289965e+01	8.241651e-04
5.126070903253229e-05	2.289965e+01	8.241651e-04
5.126153361126440e-05	2.289965e+01	8.241651e-04
5.126318276872864e-05	2.289965e+01	8.241651e-04
5.126648108365711e-05	2.289965e+01	8.241651e-04
5.127307771351405e-05	2.289965e+01	8.241651e-04
5.127733784543001e-05	2.289964e+01	8.241651e-04
5.128000688181968e-05	2.289964e+01	8.241651e-04
5.128146853303967e-05	2.289963e+01	8.241651e-04
5.128237827731775e-05	2.289963e+01	8.241651e-04
5.128289711991316e-05	2.289963e+01	8.241651e-04
5.128335149479660e-05	2.289963e+01	8.241651e-04
5.128381115063010e-05	2.289963e+01	8.241651e-04
5.128433967205827e-05	2.289962e+01	8.241651e-04
5.128507760323089e-05	2.289962e+01	8.241651e-04
5.128620413645344e-05	2.289962e+01	8.241651e-04
5.128810725255031e-05	2.289961e+01	8.241651e-04
5.129165603731411e-05	2.289959e+01	8.241651e-04
5.129875360684173e-05	2.289954e+01	8.241651e-04
5.131294874589696e-05	2.289935e+01	8.241651e-04
5.134133902400740e-05	2.289774e+01	8.241651e-04
5.139811958022830e-05	2.258840e+01	8.241651e-04
5.149811958022830e-05	2.015599e-02	8.241651e-04
5.159811958022830e-05	8.297288e-04	8.241651e-04
5.169957550048767e-05	8.241651e-04	8.241651e-04
5.170795691080886e-05	8.241651e-04	8.241651e-04
5.174544865582687e-05	8.241651e-04	8.241651e-04
5.194401727356436e-05	8.241651e-04	8.241651e-04
5.214401727356436e-05	8.241651e-04	8.241651e-04
5.234401727356437e-05	8.241651e-04	8.241651e-04
5.254401727356437e-05	8.241651e-04	8.241651e-04
5.274401727356438e-05	8.241651e-04	8.241651e-04
5.294401727356438e-05	8.241651e-04	8.241651e-04
5.314401727356439e-05	8.241651e-04	8.241651e-04
5.334401727356439e-05	8.241651e-04	8.241651e-04
5.354401727356440e-05	8.241651e-04	8.241651e-04
5.374401727356440e-05	8.241651e-04	8.241651e-04
5.394401727356441e-05	8.241651e-04	8.241651e-04
5.414401727356441e-05	8.241651e-04	8.241651e-04
5.434401727356441e-05	8.241651e-04	8.241651e-04
5.454401727356442e-05	8.241651e-04	8.241651e-04
5.474401727356442e-05	8.241651e-04	8.241651e-04
5.494401727356443e-05	8.241651e-04	8.241651e-04
5.504401727356443e-05	8.241651e-04	8.241651e-04
5.514401727356443e-05	8.241651e-04	8.241651e-04
5.515651727356443e-05	8.241651e-04	8.241651e-04
5.518151727356444e-05	8.241651e-04	8.241651e-04
5.518776727356443e-05	8.241651e-04	8.241651e-04
5.520026727356443e-05	8.241651e-04	8.241651e-04
5.520329022222053e-05	8.241651e-04	8.241651e-04
5.520614352221184e-05	8.241651e-04	8.241651e-04
5.521028475138053e-05	8.241651e-04	8.241651e-04
5.521567071389682e-05	8.241651e-04	8.241724e-04
5.522644263892939e-05	8.241651e-04	8.243149e-04
5.524798648899452e-05	8.241651e-04	8.254061e-04
5.529107418912479e-05	8.241651e-04	1.176893e-03
5.537724958938533e-05	8.241651e-04	4.441837e-01
5.547724958938534e-05	8.241651e-04	2.287729e+01
5.555954621651172e-05	8.241651e-04	2.289939e+01
5.673916905341988e-05	8.241651e-04	2.289950e+01
5.791879189032804e-05	8.241651e-04	2.289959e+01
5.909841472723620e-05	8.241651e-04	2.289966e+01
6.027803756414436e-05	8.241651e-04	2.289970e+01
6.145766040105253e-05	8.241651e-04	2.289971e+01
6.263728323796069e-05	8.241651e-04	2.289969e+01
6.381690607486885e-05	8.241651e-04	2.289965e+01
6.384190607486885e-05	8.241651e-04	2.289965e+01
6.384815607486885e-05	8.241651e-04	2.289965e+01
6.384822607877510e-05	8.241651e-04	2.289965e+01
6.384836608658760e-05	8.241651e-04	2.289965e+01
